
T08D8 000:538 SEGGER J-Link V4.90 Log File (0002ms, 0298ms total)
T08D8 000:538 DLL Compiled: Jul 28 2014 10:35:20 (0002ms, 0298ms total)
T08D8 000:538 Logging started @ 2016-05-24 13:11 (0002ms, 0298ms total)
T08D8 000:540 JLINK_SetWarnOutHandler(...) (0000ms, 0298ms total)
T08D8 000:540 JLINK_OpenEx(...)
Firmware: J-Link ARM V8 compiled Nov 28 2014 13:44:46
Hardware: V8.00
S/N: 17935099
Feature(s): RDI,FlashDL,FlashBP,JFlash  returns O.K. (0285ms, 0583ms total)
T08D8 000:825 JLINK_SetErrorOutHandler(...) (0000ms, 0583ms total)
T08D8 000:825 JLINK_ExecCommand("ProjectFile = "E:\BaiduYunDownload\毕设\答辨版\基于KS16的无线飞鼠设计\龙冠荣\ametal_easy_arm_amks16z\project_keil\applications\template\JLinkSettings.ini"", ...)  returns 0x00 (0003ms, 0586ms total)
T08D8 000:844 JLINK_ExecCommand("Device = MKL16Z128xxx4", ...)Device "MKL16Z128XXX4" selected (128 KB flash, 16 KB RAM).  returns 0x00 (0009ms, 0595ms total)
T08D8 000:853 JLINK_ExecCommand("DisableConnectionTimeout", ...)  returns 0x01 (0000ms, 0595ms total)
T08D8 000:853 JLINK_GetHardwareVersion()  returns 0x13880 (0000ms, 0595ms total)
T08D8 000:853 JLINK_GetDLLVersion()  returns 49000 (0000ms, 0595ms total)
T08D8 000:853 JLINK_GetFirmwareString(...) (0000ms, 0595ms total)
T08D8 000:868 JLINK_GetDLLVersion()  returns 49000 (0000ms, 0595ms total)
T08D8 000:868 JLINK_GetCompileDateTime() (0000ms, 0595ms total)
T08D8 000:871 JLINK_GetFirmwareString(...) (0001ms, 0596ms total)
T08D8 000:875 JLINK_GetHardwareVersion()  returns 0x13880 (0000ms, 0596ms total)
T08D8 000:882 JLINK_TIF_Select(JLINKARM_TIF_SWD)  returns 0x00 (0005ms, 0601ms total)
T08D8 000:887 JLINK_SetSpeed(5000) (0001ms, 0602ms total)
T08D8 000:888 JLINK_GetId() >0x108 TIF>Found SWD-DP with ID 0x0BC11477 >0x0D TIF> >0x28 TIF> >0x0D TIF> >0x28 TIF> >0x0D TIF> >0x21 TIF> >0x0D TIF> >0x28 TIF> >0x0D TIF> >0x21 TIF> >0x0D TIF> >0x21 TIF> >0x0D TIF> >0x21 TIF> >0x0D TIF> >0x21 TIF> >0x0D TIF> >0x21 TIF> >0x0D TIF> >0x21 TIF> >0x0D TIF> >0x21 TIF> >0x0D TIF> >0x21 TIF> >0x0D TIF> >0x21 TIF> >0x0D TIF> >0x21 TIF> >0x0D TIF> >0x28 TIF> >0x0D TIF> >0x28 TIF> >0x0D TIF> >0x28 TIF> >0x0D TIF> >0x28 TIF> >0x0D TIF> >0x28 TIF> >0x0D TIF>
 >0x28 TIF> >0x0D TIF> >0x28 TIF> >0x0D TIF> >0x21 TIF> >0x0D TIF> >0x21 TIF> >0x0D TIF> >0x28 TIF> >0x108 TIF>Found SWD-DP with ID 0x0BC11477 >0x0D TIF> >0x21 TIF> >0x0D TIF> >0x28 TIF> >0x0D TIF> >0x28 TIF> >0x0D TIF> >0x21 TIF> >0x0D TIF> >0x28 TIF> >0x0D TIF> >0x21 TIF> >0x0D TIF> >0x21 TIF> >0x0D TIF> >0x21 TIF> >0x0D TIF> >0x28 TIF> >0x0D TIF> >0x28 TIF> >0x0D TIF> >0x28 TIF> >0x0D TIF> >0x21 TIF> >0x0D TIF> >0x21 TIF> >0x0D TIF> >0x28 TIF> >0x0D TIF> >0x21 TIF> >0x0D TIF> >0x21 TIF> >0x0D TIF>
 >0x21 TIF> >0x0D TIF> >0x21 TIF> >0x0D TIF> >0x21 TIF> >0x0D TIF> >0x28 TIF> >0x0D TIF> >0x21 TIF> >0x0D TIF> >0x21 TIF> >0x0D TIF> >0x28 TIF> >0x0D TIF> >0x21 TIF> >0x0D TIF> >0x21 TIF> >0x0D TIF> >0x21 TIF> >0x0D TIF> >0x21 TIF> >0x0D TIF> >0x21 TIF> >0x0D TIF> >0x28 TIF> >0x0D TIF> >0x21 TIF> >0x0D TIF> >0x21 TIF> >0x0D TIF> >0x21 TIF> >0x0D TIF> >0x28 TIF> >0x0D TIF> >0x28 TIF> >0x0D TIF> >0x21 TIF> >0x0D TIF> >0x28 TIF> >0x0D TIF> >0x28 TIF> >0x0D TIF> >0x28 TIF> >0x0D TIF> >0x21 TIF> >0x0D TIF>
 >0x21 TIF> >0x0D TIF> >0x28 TIF> >0x0D TIF> >0x21 TIF> >0x0D TIF> >0x21 TIF>Found Cortex-M0 r0p0, Little endian. -- CPU_WriteMem(4 bytes @ 0xE0002000) -- CPU_ReadMem(4 bytes @ 0xE000EDF0) -- CPU_ReadMem(4 bytes @ 0xE0002000)FPUnit: 2 code (BP) slots and 0 literal slots -- CPU_ReadMem(4 bytes @ 0xE000EDFC) -- CPU_WriteMem(4 bytes @ 0xE000EDFC) -- CPU_ReadMem(4 bytes @ 0xE0001000) -- CPU_WriteMem(4 bytes @ 0xE0001000) -- CPU_ReadMem(4 bytes @ 0xE00FF018) -- CPU_ReadMem(4 bytes @ 0x40048100) >0x0D TIF>
 >0x21 TIF>  returns 0x0BC11477 (0238ms, 0840ms total)
T08D8 001:126 JLINK_GetDLLVersion()  returns 49000 (0000ms, 0840ms total)
T08D8 001:126 JLINK_CORE_GetFound()  returns 0x60000FF (0001ms, 0841ms total)
T08D8 001:131 JLINK_ReadMem (0xE00FF000, 0x0020 Bytes, ...) -- CPU is running -- CPU_ReadMem(32 bytes @ 0xE00FF000) - Data: 03 F0 F0 FF 03 20 F0 FF 03 30 F0 FF 00 00 00 00 ...  returns 0x00 (0002ms, 0843ms total)
T08D8 001:133 JLINK_ReadMem (0xE000EFF0, 0x0010 Bytes, ...) -- CPU is running -- CPU_ReadMem(16 bytes @ 0xE000EFF0) - Data: 0D 00 00 00 E0 00 00 00 05 00 00 00 B1 00 00 00  returns 0x00 (0001ms, 0844ms total)
T08D8 001:134 JLINK_ReadMem (0xE000EFD0, 0x0020 Bytes, ...) -- CPU is running -- CPU_ReadMem(32 bytes @ 0xE000EFD0) - Data: 04 00 00 00 00 00 00 00 00 00 00 00 00 00 00 00 ...  returns 0x00 (0003ms, 0847ms total)
T08D8 001:137 JLINK_ReadMem (0xE0001FF0, 0x0010 Bytes, ...) -- CPU is running -- CPU_ReadMem(16 bytes @ 0xE0001FF0) - Data: 0D 00 00 00 E0 00 00 00 05 00 00 00 B1 00 00 00  returns 0x00 (0002ms, 0849ms total)
T08D8 001:139 JLINK_ReadMem (0xE0001FD0, 0x0020 Bytes, ...) -- CPU is running -- CPU_ReadMem(32 bytes @ 0xE0001FD0) - Data: 04 00 00 00 00 00 00 00 00 00 00 00 00 00 00 00 ...  returns 0x00 (0002ms, 0851ms total)
T08D8 001:141 JLINK_ReadMem (0xE0002FF0, 0x0010 Bytes, ...) -- CPU is running -- CPU_ReadMem(16 bytes @ 0xE0002FF0) - Data: 0D 00 00 00 E0 00 00 00 05 00 00 00 B1 00 00 00  returns 0x00 (0002ms, 0853ms total)
T08D8 001:143 JLINK_ReadMem (0xE0002FD0, 0x0020 Bytes, ...) -- CPU is running -- CPU_ReadMem(32 bytes @ 0xE0002FD0) - Data: 04 00 00 00 00 00 00 00 00 00 00 00 00 00 00 00 ...  returns 0x00 (0002ms, 0855ms total)
T08D8 001:145 JLINK_ReadMemU32(0xE000ED00, 0x0001 Items, ...) -- CPU is running -- CPU_ReadMem(4 bytes @ 0xE000ED00) - Data: 00 C6 0C 41  returns 0x01 (0002ms, 0857ms total)
T08D8 001:147 JLINK_SetResetType(JLINKARM_RESET_TYPE_NORMAL)  returns JLINKARM_RESET_TYPE_NORMAL (0000ms, 0857ms total)
T08D8 001:147 JLINK_Reset() -- CPU is running -- CPU_WriteMem(4 bytes @ 0xE000EDF0) -- CPU is running -- CPU_WriteMem(4 bytes @ 0xE000EDFC) >0x35 TIF> -- CPU is running -- CPU_WriteMem(4 bytes @ 0xE000ED0C) -- CPU is running -- CPU_ReadMem(4 bytes @ 0xE000EDF0) -- CPU is running -- CPU_ReadMem(4 bytes @ 0xE000EDF0) -- CPU is running -- CPU_WriteMem(4 bytes @ 0xE000EDF0) -- CPU is running -- CPU_WriteMem(4 bytes @ 0xE000EDFC) -- CPU is running -- CPU_ReadMem(4 bytes @ 0xE000EDF0)
 -- CPU_ReadMem(4 bytes @ 0x40048100)Kinetis L-series (setup): Disabling watchdog. -- CPU_WriteMem(4 bytes @ 0x40048100) -- CPU_WriteMem(4 bytes @ 0xE0002000) -- CPU_ReadMem(4 bytes @ 0xE000EDFC) -- CPU_ReadMem(4 bytes @ 0xE0001000) -- CPU_WriteMem(4 bytes @ 0xE0001000) (0041ms, 0898ms total)
T08D8 001:188 JLINK_Halt()  returns 0x00 (0000ms, 0898ms total)
T08D8 001:188 JLINK_IsHalted()  returns TRUE (0000ms, 0898ms total)
T08D8 001:188 JLINK_ReadMemU32(0xE000EDF0, 0x0001 Items, ...) -- CPU_ReadMem(4 bytes @ 0xE000EDF0) - Data: 03 00 03 01  returns 0x01 (0001ms, 0899ms total)
T08D8 001:189 JLINK_WriteU32(0xE000EDF0, 0xA05F0003) -- CPU_WriteMem(4 bytes @ 0xE000EDF0)  returns 0x00 (0002ms, 0901ms total)
T08D8 001:191 JLINK_WriteU32(0xE000EDFC, 0x01000000) -- CPU_WriteMem(4 bytes @ 0xE000EDFC)  returns 0x00 (0002ms, 0903ms total)
T08D8 001:205 JLINK_GetHWStatus(...)  returns 0x00 (0001ms, 0904ms total)
T08D8 001:213 JLINK_GetNumBPUnits(Type = 0xFFFFFF00)  returns 0x02 (0000ms, 0904ms total)
T08D8 001:213 JLINK_GetNumBPUnits(Type = 0xF0)  returns 0x2000 (0000ms, 0904ms total)
T08D8 001:213 JLINK_GetNumWPUnits()  returns 0x02 (0000ms, 0904ms total)
T08D8 001:220 JLINK_GetSpeed()  returns 0xFA0 (0000ms, 0904ms total)
T08D8 001:224 JLINK_ReadMemU32(0xE000E004, 0x0001 Items, ...) -- CPU_ReadMem(4 bytes @ 0xE000E004) - Data: 00 00 00 00  returns 0x01 (0001ms, 0905ms total)
T08D8 001:225 JLINK_Halt()  returns 0x00 (0000ms, 0905ms total)
T08D8 001:225 JLINK_IsHalted()  returns TRUE (0001ms, 0906ms total)
T08D8 001:230 JLINK_WriteMem(0x1FFFF000, 0x0620 Bytes, ...) - Data: 00 BE 0A E0 0D 78 2D 06 68 40 08 24 40 00 00 D3 ... -- CPU_WriteMem(1568 bytes @ 0x1FFFF000)  returns 0x620 (0011ms, 0916ms total)
T08D8 001:241 JLINK_WriteReg(R0, 0x00000000)  returns 0x00 (0000ms, 0916ms total)
T08D8 001:241 JLINK_WriteReg(R1, 0x00B71B00)  returns 0x00 (0000ms, 0916ms total)
T08D8 001:241 JLINK_WriteReg(R2, 0x00000001)  returns 0x00 (0000ms, 0916ms total)
T08D8 001:241 JLINK_WriteReg(R3, 0x00000000)  returns 0x00 (0000ms, 0916ms total)
T08D8 001:241 JLINK_WriteReg(R4, 0x00000000)  returns 0x00 (0000ms, 0916ms total)
T08D8 001:241 JLINK_WriteReg(R5, 0x00000000)  returns 0x00 (0000ms, 0916ms total)
T08D8 001:241 JLINK_WriteReg(R6, 0x00000000)  returns 0x00 (0000ms, 0916ms total)
T08D8 001:241 JLINK_WriteReg(R7, 0x00000000)  returns 0x00 (0000ms, 0916ms total)
T08D8 001:241 JLINK_WriteReg(R8, 0x00000000)  returns 0x00 (0000ms, 0916ms total)
T08D8 001:241 JLINK_WriteReg(R9, 0x1FFFF618)  returns 0x00 (0000ms, 0916ms total)
T08D8 001:241 JLINK_WriteReg(R10, 0x00000000)  returns 0x00 (0000ms, 0916ms total)
T08D8 001:241 JLINK_WriteReg(R11, 0x00000000)  returns 0x00 (0000ms, 0916ms total)
T08D8 001:241 JLINK_WriteReg(R12, 0x00000000)  returns 0x00 (0000ms, 0916ms total)
T08D8 001:241 JLINK_WriteReg(R13 (SP), 0x20003000)  returns 0x00 (0000ms, 0916ms total)
T08D8 001:241 JLINK_WriteReg(R14, 0x1FFFF001)  returns 0x00 (0000ms, 0916ms total)
T08D8 001:241 JLINK_WriteReg(R15 (PC), 0x1FFFF020)  returns 0x00 (0000ms, 0916ms total)
T08D8 001:241 JLINK_WriteReg(XPSR, 0x01000000)  returns 0x00 (0000ms, 0916ms total)
T08D8 001:241 JLINK_WriteReg(MSP, 0x20003000)  returns 0x00 (0000ms, 0916ms total)
T08D8 001:241 JLINK_WriteReg(PSP, 0x20003000)  returns 0x00 (0000ms, 0916ms total)
T08D8 001:241 JLINK_WriteReg(CFBP, 0x00000000)  returns 0x00 (0000ms, 0916ms total)
T08D8 001:241 JLINK_SetBPEx(Addr = 0x1FFFF000, Type = 0xFFFFFFF2)  returns 0x00000001 (0000ms, 0916ms total)
T08D8 001:241 JLINK_Go() -- CPU_WriteMem(4 bytes @ 0xE0002000) -- CPU_WriteMem(4 bytes @ 0xE0002008) -- CPU_WriteMem(4 bytes @ 0xE000200C) -- CPU_WriteMem(4 bytes @ 0xE0001004) (0009ms, 0925ms total)
T08D8 001:250 JLINK_IsHalted()  returns TRUE (0005ms, 0930ms total)
T08D8 001:255 JLINK_ReadReg(R15 (PC))  returns 0x1FFFF000 (0000ms, 0925ms total)
T08D8 001:255 JLINK_ClrBPEx(BPHandle = 0x00000001)  returns 0x00 (0000ms, 0925ms total)
T08D8 001:255 JLINK_ReadReg(R0)  returns 0x00000000 (0000ms, 0925ms total)
T08D8 001:255 JLINK_WriteReg(R0, 0x00000000)  returns 0x00 (0000ms, 0925ms total)
T08D8 001:255 JLINK_WriteReg(R1, 0x00000400)  returns 0x00 (0000ms, 0925ms total)
T08D8 001:255 JLINK_WriteReg(R2, 0x000000FF)  returns 0x00 (0000ms, 0925ms total)
T08D8 001:255 JLINK_WriteReg(R3, 0x00000000)  returns 0x00 (0000ms, 0925ms total)
T08D8 001:255 JLINK_WriteReg(R4, 0x00000000)  returns 0x00 (0000ms, 0925ms total)
T08D8 001:255 JLINK_WriteReg(R5, 0x00000000)  returns 0x00 (0000ms, 0925ms total)
T08D8 001:255 JLINK_WriteReg(R6, 0x00000000)  returns 0x00 (0000ms, 0925ms total)
T08D8 001:255 JLINK_WriteReg(R7, 0x00000000)  returns 0x00 (0000ms, 0925ms total)
T08D8 001:255 JLINK_WriteReg(R8, 0x00000000)  returns 0x00 (0000ms, 0925ms total)
T08D8 001:255 JLINK_WriteReg(R9, 0x1FFFF618)  returns 0x00 (0000ms, 0925ms total)
T08D8 001:255 JLINK_WriteReg(R10, 0x00000000)  returns 0x00 (0000ms, 0925ms total)
T08D8 001:255 JLINK_WriteReg(R11, 0x00000000)  returns 0x00 (0000ms, 0925ms total)
T08D8 001:255 JLINK_WriteReg(R12, 0x00000000)  returns 0x00 (0000ms, 0925ms total)
T08D8 001:255 JLINK_WriteReg(R13 (SP), 0x20003000)  returns 0x00 (0000ms, 0925ms total)
T08D8 001:255 JLINK_WriteReg(R14, 0x1FFFF001)  returns 0x00 (0000ms, 0925ms total)
T08D8 001:256 JLINK_WriteReg(R15 (PC), 0x1FFFF068)  returns 0x00 (0000ms, 0926ms total)
T08D8 001:256 JLINK_WriteReg(XPSR, 0x01000000)  returns 0x00 (0000ms, 0926ms total)
T08D8 001:256 JLINK_WriteReg(MSP, 0x20003000)  returns 0x00 (0000ms, 0926ms total)
T08D8 001:256 JLINK_WriteReg(PSP, 0x20003000)  returns 0x00 (0000ms, 0926ms total)
T08D8 001:256 JLINK_WriteReg(CFBP, 0x00000000)  returns 0x00 (0000ms, 0926ms total)
T08D8 001:256 JLINK_SetBPEx(Addr = 0x1FFFF000, Type = 0xFFFFFFF2)  returns 0x00000002 (0000ms, 0926ms total)
T08D8 001:256 JLINK_Go() -- CPU_WriteMem(4 bytes @ 0xE0002000) (0004ms, 0930ms total)
T08D8 001:260 JLINK_IsHalted()  returns TRUE (0005ms, 0935ms total)
T08D8 001:265 JLINK_ReadReg(R15 (PC))  returns 0x1FFFF000 (0000ms, 0930ms total)
T08D8 001:265 JLINK_ClrBPEx(BPHandle = 0x00000002)  returns 0x00 (0000ms, 0930ms total)
T08D8 001:265 JLINK_ReadReg(R0)  returns 0x00000001 (0000ms, 0930ms total)
T08D8 001:265 JLINK_WriteReg(R0, 0x00000000)  returns 0x00 (0000ms, 0930ms total)
T08D8 001:265 JLINK_WriteReg(R1, 0x00000400)  returns 0x00 (0000ms, 0930ms total)
T08D8 001:265 JLINK_WriteReg(R2, 0x000000FF)  returns 0x00 (0000ms, 0930ms total)
T08D8 001:265 JLINK_WriteReg(R3, 0x00000000)  returns 0x00 (0000ms, 0930ms total)
T08D8 001:265 JLINK_WriteReg(R4, 0x00000000)  returns 0x00 (0000ms, 0930ms total)
T08D8 001:265 JLINK_WriteReg(R5, 0x00000000)  returns 0x00 (0000ms, 0930ms total)
T08D8 001:265 JLINK_WriteReg(R6, 0x00000000)  returns 0x00 (0000ms, 0930ms total)
T08D8 001:265 JLINK_WriteReg(R7, 0x00000000)  returns 0x00 (0000ms, 0930ms total)
T08D8 001:265 JLINK_WriteReg(R8, 0x00000000)  returns 0x00 (0000ms, 0930ms total)
T08D8 001:265 JLINK_WriteReg(R9, 0x1FFFF618)  returns 0x00 (0000ms, 0930ms total)
T08D8 001:265 JLINK_WriteReg(R10, 0x00000000)  returns 0x00 (0000ms, 0930ms total)
T08D8 001:265 JLINK_WriteReg(R11, 0x00000000)  returns 0x00 (0000ms, 0930ms total)
T08D8 001:265 JLINK_WriteReg(R12, 0x00000000)  returns 0x00 (0000ms, 0930ms total)
T08D8 001:265 JLINK_WriteReg(R13 (SP), 0x20003000)  returns 0x00 (0000ms, 0930ms total)
T08D8 001:265 JLINK_WriteReg(R14, 0x1FFFF001)  returns 0x00 (0000ms, 0930ms total)
T08D8 001:265 JLINK_WriteReg(R15 (PC), 0x1FFFF0BC)  returns 0x00 (0000ms, 0930ms total)
T08D8 001:265 JLINK_WriteReg(XPSR, 0x01000000)  returns 0x00 (0000ms, 0930ms total)
T08D8 001:265 JLINK_WriteReg(MSP, 0x20003000)  returns 0x00 (0000ms, 0930ms total)
T08D8 001:265 JLINK_WriteReg(PSP, 0x20003000)  returns 0x00 (0001ms, 0931ms total)
T08D8 001:266 JLINK_WriteReg(CFBP, 0x00000000)  returns 0x00 (0000ms, 0931ms total)
T08D8 001:266 JLINK_SetBPEx(Addr = 0x1FFFF000, Type = 0xFFFFFFF2)  returns 0x00000003 (0000ms, 0931ms total)
T08D8 001:266 JLINK_Go() -- CPU_WriteMem(4 bytes @ 0xE0002000) (0005ms, 0936ms total)
T08D8 001:271 JLINK_IsHalted()  returns FALSE (0001ms, 0937ms total)
T08D8 001:313 JLINK_IsHalted()  returns TRUE (0004ms, 0940ms total)
T08D8 001:317 JLINK_ReadReg(R15 (PC))  returns 0x1FFFF000 (0000ms, 0936ms total)
T08D8 001:317 JLINK_ClrBPEx(BPHandle = 0x00000003)  returns 0x00 (0000ms, 0936ms total)
T08D8 001:317 JLINK_ReadReg(R0)  returns 0x00000000 (0000ms, 0936ms total)
T08D8 001:318 JLINK_WriteReg(R0, 0x00000400)  returns 0x00 (0000ms, 0936ms total)
T08D8 001:318 JLINK_WriteReg(R1, 0x00000400)  returns 0x00 (0000ms, 0936ms total)
T08D8 001:318 JLINK_WriteReg(R2, 0x000000FF)  returns 0x00 (0000ms, 0936ms total)
T08D8 001:318 JLINK_WriteReg(R3, 0x00000000)  returns 0x00 (0000ms, 0936ms total)
T08D8 001:318 JLINK_WriteReg(R4, 0x00000000)  returns 0x00 (0000ms, 0936ms total)
T08D8 001:318 JLINK_WriteReg(R5, 0x00000000)  returns 0x00 (0000ms, 0936ms total)
T08D8 001:318 JLINK_WriteReg(R6, 0x00000000)  returns 0x00 (0000ms, 0936ms total)
T08D8 001:318 JLINK_WriteReg(R7, 0x00000000)  returns 0x00 (0000ms, 0936ms total)
T08D8 001:318 JLINK_WriteReg(R8, 0x00000000)  returns 0x00 (0000ms, 0936ms total)
T08D8 001:318 JLINK_WriteReg(R9, 0x1FFFF618)  returns 0x00 (0000ms, 0936ms total)
T08D8 001:318 JLINK_WriteReg(R10, 0x00000000)  returns 0x00 (0000ms, 0936ms total)
T08D8 001:318 JLINK_WriteReg(R11, 0x00000000)  returns 0x00 (0000ms, 0936ms total)
T08D8 001:318 JLINK_WriteReg(R12, 0x00000000)  returns 0x00 (0000ms, 0936ms total)
T08D8 001:318 JLINK_WriteReg(R13 (SP), 0x20003000)  returns 0x00 (0000ms, 0936ms total)
T08D8 001:318 JLINK_WriteReg(R14, 0x1FFFF001)  returns 0x00 (0000ms, 0936ms total)
T08D8 001:318 JLINK_WriteReg(R15 (PC), 0x1FFFF068)  returns 0x00 (0000ms, 0936ms total)
T08D8 001:318 JLINK_WriteReg(XPSR, 0x01000000)  returns 0x00 (0000ms, 0936ms total)
T08D8 001:318 JLINK_WriteReg(MSP, 0x20003000)  returns 0x00 (0000ms, 0936ms total)
T08D8 001:318 JLINK_WriteReg(PSP, 0x20003000)  returns 0x00 (0000ms, 0936ms total)
T08D8 001:318 JLINK_WriteReg(CFBP, 0x00000000)  returns 0x00 (0000ms, 0936ms total)
T08D8 001:318 JLINK_SetBPEx(Addr = 0x1FFFF000, Type = 0xFFFFFFF2)  returns 0x00000004 (0001ms, 0937ms total)
T08D8 001:319 JLINK_Go() -- CPU_WriteMem(4 bytes @ 0xE0002000) (0006ms, 0943ms total)
T08D8 001:325 JLINK_IsHalted()  returns TRUE (0004ms, 0947ms total)
T08D8 001:329 JLINK_ReadReg(R15 (PC))  returns 0x1FFFF000 (0000ms, 0943ms total)
T08D8 001:329 JLINK_ClrBPEx(BPHandle = 0x00000004)  returns 0x00 (0000ms, 0943ms total)
T08D8 001:329 JLINK_ReadReg(R0)  returns 0x00000001 (0000ms, 0943ms total)
T08D8 001:329 JLINK_WriteReg(R0, 0x00000400)  returns 0x00 (0000ms, 0943ms total)
T08D8 001:329 JLINK_WriteReg(R1, 0x00000400)  returns 0x00 (0000ms, 0943ms total)
T08D8 001:329 JLINK_WriteReg(R2, 0x000000FF)  returns 0x00 (0000ms, 0943ms total)
T08D8 001:329 JLINK_WriteReg(R3, 0x00000000)  returns 0x00 (0000ms, 0943ms total)
T08D8 001:329 JLINK_WriteReg(R4, 0x00000000)  returns 0x00 (0000ms, 0943ms total)
T08D8 001:330 JLINK_WriteReg(R5, 0x00000000)  returns 0x00 (0000ms, 0944ms total)
T08D8 001:330 JLINK_WriteReg(R6, 0x00000000)  returns 0x00 (0000ms, 0944ms total)
T08D8 001:330 JLINK_WriteReg(R7, 0x00000000)  returns 0x00 (0000ms, 0944ms total)
T08D8 001:330 JLINK_WriteReg(R8, 0x00000000)  returns 0x00 (0000ms, 0944ms total)
T08D8 001:330 JLINK_WriteReg(R9, 0x1FFFF618)  returns 0x00 (0000ms, 0944ms total)
T08D8 001:330 JLINK_WriteReg(R10, 0x00000000)  returns 0x00 (0000ms, 0944ms total)
T08D8 001:330 JLINK_WriteReg(R11, 0x00000000)  returns 0x00 (0000ms, 0944ms total)
T08D8 001:330 JLINK_WriteReg(R12, 0x00000000)  returns 0x00 (0000ms, 0944ms total)
T08D8 001:330 JLINK_WriteReg(R13 (SP), 0x20003000)  returns 0x00 (0000ms, 0944ms total)
T08D8 001:330 JLINK_WriteReg(R14, 0x1FFFF001)  returns 0x00 (0000ms, 0944ms total)
T08D8 001:330 JLINK_WriteReg(R15 (PC), 0x1FFFF0BC)  returns 0x00 (0000ms, 0944ms total)
T08D8 001:330 JLINK_WriteReg(XPSR, 0x01000000)  returns 0x00 (0000ms, 0944ms total)
T08D8 001:330 JLINK_WriteReg(MSP, 0x20003000)  returns 0x00 (0000ms, 0944ms total)
T08D8 001:330 JLINK_WriteReg(PSP, 0x20003000)  returns 0x00 (0000ms, 0944ms total)
T08D8 001:330 JLINK_WriteReg(CFBP, 0x00000000)  returns 0x00 (0000ms, 0944ms total)
T08D8 001:330 JLINK_SetBPEx(Addr = 0x1FFFF000, Type = 0xFFFFFFF2)  returns 0x00000005 (0000ms, 0944ms total)
T08D8 001:330 JLINK_Go() -- CPU_WriteMem(4 bytes @ 0xE0002000) (0005ms, 0949ms total)
T08D8 001:335 JLINK_IsHalted()  returns FALSE (0002ms, 0951ms total)
T08D8 001:353 JLINK_IsHalted()  returns TRUE (0004ms, 0953ms total)
T08D8 001:357 JLINK_ReadReg(R15 (PC))  returns 0x1FFFF000 (0000ms, 0949ms total)
T08D8 001:357 JLINK_ClrBPEx(BPHandle = 0x00000005)  returns 0x00 (0000ms, 0949ms total)
T08D8 001:357 JLINK_ReadReg(R0)  returns 0x00000000 (0000ms, 0949ms total)
T08D8 001:357 JLINK_WriteReg(R0, 0x00000800)  returns 0x00 (0000ms, 0949ms total)
T08D8 001:357 JLINK_WriteReg(R1, 0x00000400)  returns 0x00 (0000ms, 0949ms total)
T08D8 001:357 JLINK_WriteReg(R2, 0x000000FF)  returns 0x00 (0000ms, 0949ms total)
T08D8 001:357 JLINK_WriteReg(R3, 0x00000000)  returns 0x00 (0000ms, 0949ms total)
T08D8 001:357 JLINK_WriteReg(R4, 0x00000000)  returns 0x00 (0000ms, 0949ms total)
T08D8 001:357 JLINK_WriteReg(R5, 0x00000000)  returns 0x00 (0001ms, 0950ms total)
T08D8 001:358 JLINK_WriteReg(R6, 0x00000000)  returns 0x00 (0000ms, 0950ms total)
T08D8 001:358 JLINK_WriteReg(R7, 0x00000000)  returns 0x00 (0000ms, 0950ms total)
T08D8 001:358 JLINK_WriteReg(R8, 0x00000000)  returns 0x00 (0000ms, 0950ms total)
T08D8 001:358 JLINK_WriteReg(R9, 0x1FFFF618)  returns 0x00 (0000ms, 0950ms total)
T08D8 001:358 JLINK_WriteReg(R10, 0x00000000)  returns 0x00 (0000ms, 0950ms total)
T08D8 001:358 JLINK_WriteReg(R11, 0x00000000)  returns 0x00 (0000ms, 0950ms total)
T08D8 001:358 JLINK_WriteReg(R12, 0x00000000)  returns 0x00 (0000ms, 0950ms total)
T08D8 001:358 JLINK_WriteReg(R13 (SP), 0x20003000)  returns 0x00 (0000ms, 0950ms total)
T08D8 001:358 JLINK_WriteReg(R14, 0x1FFFF001)  returns 0x00 (0000ms, 0950ms total)
T08D8 001:358 JLINK_WriteReg(R15 (PC), 0x1FFFF068)  returns 0x00 (0000ms, 0950ms total)
T08D8 001:358 JLINK_WriteReg(XPSR, 0x01000000)  returns 0x00 (0000ms, 0950ms total)
T08D8 001:358 JLINK_WriteReg(MSP, 0x20003000)  returns 0x00 (0000ms, 0950ms total)
T08D8 001:358 JLINK_WriteReg(PSP, 0x20003000)  returns 0x00 (0000ms, 0950ms total)
T08D8 001:358 JLINK_WriteReg(CFBP, 0x00000000)  returns 0x00 (0000ms, 0950ms total)
T08D8 001:358 JLINK_SetBPEx(Addr = 0x1FFFF000, Type = 0xFFFFFFF2)  returns 0x00000006 (0000ms, 0950ms total)
T08D8 001:358 JLINK_Go() -- CPU_WriteMem(4 bytes @ 0xE0002000) (0005ms, 0955ms total)
T08D8 001:363 JLINK_IsHalted()  returns TRUE (0004ms, 0959ms total)
T08D8 001:367 JLINK_ReadReg(R15 (PC))  returns 0x1FFFF000 (0000ms, 0955ms total)
T08D8 001:367 JLINK_ClrBPEx(BPHandle = 0x00000006)  returns 0x00 (0000ms, 0955ms total)
T08D8 001:367 JLINK_ReadReg(R0)  returns 0x00000001 (0000ms, 0955ms total)
T08D8 001:367 JLINK_WriteReg(R0, 0x00000800)  returns 0x00 (0000ms, 0955ms total)
T08D8 001:367 JLINK_WriteReg(R1, 0x00000400)  returns 0x00 (0001ms, 0956ms total)
T08D8 001:368 JLINK_WriteReg(R2, 0x000000FF)  returns 0x00 (0000ms, 0956ms total)
T08D8 001:368 JLINK_WriteReg(R3, 0x00000000)  returns 0x00 (0000ms, 0956ms total)
T08D8 001:368 JLINK_WriteReg(R4, 0x00000000)  returns 0x00 (0000ms, 0956ms total)
T08D8 001:368 JLINK_WriteReg(R5, 0x00000000)  returns 0x00 (0000ms, 0956ms total)
T08D8 001:368 JLINK_WriteReg(R6, 0x00000000)  returns 0x00 (0000ms, 0956ms total)
T08D8 001:368 JLINK_WriteReg(R7, 0x00000000)  returns 0x00 (0000ms, 0956ms total)
T08D8 001:368 JLINK_WriteReg(R8, 0x00000000)  returns 0x00 (0000ms, 0956ms total)
T08D8 001:368 JLINK_WriteReg(R9, 0x1FFFF618)  returns 0x00 (0000ms, 0956ms total)
T08D8 001:368 JLINK_WriteReg(R10, 0x00000000)  returns 0x00 (0000ms, 0956ms total)
T08D8 001:368 JLINK_WriteReg(R11, 0x00000000)  returns 0x00 (0000ms, 0956ms total)
T08D8 001:368 JLINK_WriteReg(R12, 0x00000000)  returns 0x00 (0000ms, 0956ms total)
T08D8 001:368 JLINK_WriteReg(R13 (SP), 0x20003000)  returns 0x00 (0000ms, 0956ms total)
T08D8 001:368 JLINK_WriteReg(R14, 0x1FFFF001)  returns 0x00 (0000ms, 0956ms total)
T08D8 001:368 JLINK_WriteReg(R15 (PC), 0x1FFFF0BC)  returns 0x00 (0000ms, 0956ms total)
T08D8 001:368 JLINK_WriteReg(XPSR, 0x01000000)  returns 0x00 (0000ms, 0956ms total)
T08D8 001:368 JLINK_WriteReg(MSP, 0x20003000)  returns 0x00 (0000ms, 0956ms total)
T08D8 001:368 JLINK_WriteReg(PSP, 0x20003000)  returns 0x00 (0000ms, 0956ms total)
T08D8 001:368 JLINK_WriteReg(CFBP, 0x00000000)  returns 0x00 (0000ms, 0956ms total)
T08D8 001:368 JLINK_SetBPEx(Addr = 0x1FFFF000, Type = 0xFFFFFFF2)  returns 0x00000007 (0000ms, 0956ms total)
T08D8 001:368 JLINK_Go() -- CPU_WriteMem(4 bytes @ 0xE0002000) (0005ms, 0961ms total)
T08D8 001:373 JLINK_IsHalted()  returns FALSE (0002ms, 0963ms total)
T08D8 001:376 JLINK_IsHalted()  returns FALSE (0001ms, 0962ms total)
T08D8 001:378 JLINK_IsHalted()  returns FALSE (0001ms, 0962ms total)
T08D8 001:380 JLINK_IsHalted()  returns TRUE (0004ms, 0965ms total)
T08D8 001:384 JLINK_ReadReg(R15 (PC))  returns 0x1FFFF000 (0000ms, 0961ms total)
T08D8 001:384 JLINK_ClrBPEx(BPHandle = 0x00000007)  returns 0x00 (0000ms, 0961ms total)
T08D8 001:384 JLINK_ReadReg(R0)  returns 0x00000000 (0000ms, 0961ms total)
T08D8 001:384 JLINK_WriteReg(R0, 0x00000C00)  returns 0x00 (0000ms, 0961ms total)
T08D8 001:384 JLINK_WriteReg(R1, 0x00000400)  returns 0x00 (0000ms, 0961ms total)
T08D8 001:384 JLINK_WriteReg(R2, 0x000000FF)  returns 0x00 (0000ms, 0961ms total)
T08D8 001:384 JLINK_WriteReg(R3, 0x00000000)  returns 0x00 (0000ms, 0961ms total)
T08D8 001:384 JLINK_WriteReg(R4, 0x00000000)  returns 0x00 (0000ms, 0961ms total)
T08D8 001:384 JLINK_WriteReg(R5, 0x00000000)  returns 0x00 (0000ms, 0961ms total)
T08D8 001:384 JLINK_WriteReg(R6, 0x00000000)  returns 0x00 (0000ms, 0961ms total)
T08D8 001:384 JLINK_WriteReg(R7, 0x00000000)  returns 0x00 (0000ms, 0961ms total)
T08D8 001:384 JLINK_WriteReg(R8, 0x00000000)  returns 0x00 (0000ms, 0961ms total)
T08D8 001:384 JLINK_WriteReg(R9, 0x1FFFF618)  returns 0x00 (0000ms, 0961ms total)
T08D8 001:384 JLINK_WriteReg(R10, 0x00000000)  returns 0x00 (0001ms, 0962ms total)
T08D8 001:385 JLINK_WriteReg(R11, 0x00000000)  returns 0x00 (0000ms, 0962ms total)
T08D8 001:385 JLINK_WriteReg(R12, 0x00000000)  returns 0x00 (0000ms, 0962ms total)
T08D8 001:385 JLINK_WriteReg(R13 (SP), 0x20003000)  returns 0x00 (0000ms, 0962ms total)
T08D8 001:385 JLINK_WriteReg(R14, 0x1FFFF001)  returns 0x00 (0000ms, 0962ms total)
T08D8 001:385 JLINK_WriteReg(R15 (PC), 0x1FFFF068)  returns 0x00 (0000ms, 0962ms total)
T08D8 001:385 JLINK_WriteReg(XPSR, 0x01000000)  returns 0x00 (0000ms, 0962ms total)
T08D8 001:385 JLINK_WriteReg(MSP, 0x20003000)  returns 0x00 (0000ms, 0962ms total)
T08D8 001:385 JLINK_WriteReg(PSP, 0x20003000)  returns 0x00 (0000ms, 0962ms total)
T08D8 001:385 JLINK_WriteReg(CFBP, 0x00000000)  returns 0x00 (0000ms, 0962ms total)
T08D8 001:385 JLINK_SetBPEx(Addr = 0x1FFFF000, Type = 0xFFFFFFF2)  returns 0x00000008 (0000ms, 0962ms total)
T08D8 001:385 JLINK_Go() -- CPU_WriteMem(4 bytes @ 0xE0002000) (0005ms, 0967ms total)
T08D8 001:390 JLINK_IsHalted()  returns TRUE (0004ms, 0971ms total)
T08D8 001:394 JLINK_ReadReg(R15 (PC))  returns 0x1FFFF000 (0000ms, 0967ms total)
T08D8 001:394 JLINK_ClrBPEx(BPHandle = 0x00000008)  returns 0x00 (0000ms, 0967ms total)
T08D8 001:394 JLINK_ReadReg(R0)  returns 0x00000001 (0000ms, 0967ms total)
T08D8 001:394 JLINK_WriteReg(R0, 0x00000C00)  returns 0x00 (0000ms, 0967ms total)
T08D8 001:394 JLINK_WriteReg(R1, 0x00000400)  returns 0x00 (0000ms, 0967ms total)
T08D8 001:394 JLINK_WriteReg(R2, 0x000000FF)  returns 0x00 (0000ms, 0967ms total)
T08D8 001:394 JLINK_WriteReg(R3, 0x00000000)  returns 0x00 (0000ms, 0967ms total)
T08D8 001:394 JLINK_WriteReg(R4, 0x00000000)  returns 0x00 (0000ms, 0967ms total)
T08D8 001:394 JLINK_WriteReg(R5, 0x00000000)  returns 0x00 (0000ms, 0967ms total)
T08D8 001:394 JLINK_WriteReg(R6, 0x00000000)  returns 0x00 (0000ms, 0967ms total)
T08D8 001:394 JLINK_WriteReg(R7, 0x00000000)  returns 0x00 (0000ms, 0967ms total)
T08D8 001:394 JLINK_WriteReg(R8, 0x00000000)  returns 0x00 (0000ms, 0967ms total)
T08D8 001:394 JLINK_WriteReg(R9, 0x1FFFF618)  returns 0x00 (0000ms, 0967ms total)
T08D8 001:394 JLINK_WriteReg(R10, 0x00000000)  returns 0x00 (0001ms, 0968ms total)
T08D8 001:395 JLINK_WriteReg(R11, 0x00000000)  returns 0x00 (0000ms, 0968ms total)
T08D8 001:395 JLINK_WriteReg(R12, 0x00000000)  returns 0x00 (0000ms, 0968ms total)
T08D8 001:395 JLINK_WriteReg(R13 (SP), 0x20003000)  returns 0x00 (0000ms, 0968ms total)
T08D8 001:395 JLINK_WriteReg(R14, 0x1FFFF001)  returns 0x00 (0000ms, 0968ms total)
T08D8 001:395 JLINK_WriteReg(R15 (PC), 0x1FFFF0BC)  returns 0x00 (0000ms, 0968ms total)
T08D8 001:395 JLINK_WriteReg(XPSR, 0x01000000)  returns 0x00 (0000ms, 0968ms total)
T08D8 001:395 JLINK_WriteReg(MSP, 0x20003000)  returns 0x00 (0000ms, 0968ms total)
T08D8 001:395 JLINK_WriteReg(PSP, 0x20003000)  returns 0x00 (0000ms, 0968ms total)
T08D8 001:395 JLINK_WriteReg(CFBP, 0x00000000)  returns 0x00 (0000ms, 0968ms total)
T08D8 001:395 JLINK_SetBPEx(Addr = 0x1FFFF000, Type = 0xFFFFFFF2)  returns 0x00000009 (0000ms, 0968ms total)
T08D8 001:395 JLINK_Go() -- CPU_WriteMem(4 bytes @ 0xE0002000) (0005ms, 0973ms total)
T08D8 001:400 JLINK_IsHalted()  returns FALSE (0001ms, 0974ms total)
T08D8 001:405 JLINK_IsHalted()  returns FALSE (0001ms, 0974ms total)
T08D8 001:407 JLINK_IsHalted()  returns FALSE (0001ms, 0974ms total)
T08D8 001:409 JLINK_IsHalted()  returns TRUE (0004ms, 0977ms total)
T08D8 001:413 JLINK_ReadReg(R15 (PC))  returns 0x1FFFF000 (0000ms, 0973ms total)
T08D8 001:413 JLINK_ClrBPEx(BPHandle = 0x00000009)  returns 0x00 (0000ms, 0973ms total)
T08D8 001:413 JLINK_ReadReg(R0)  returns 0x00000000 (0000ms, 0973ms total)
T08D8 001:413 JLINK_WriteReg(R0, 0x00001000)  returns 0x00 (0001ms, 0974ms total)
T08D8 001:414 JLINK_WriteReg(R1, 0x00000400)  returns 0x00 (0000ms, 0974ms total)
T08D8 001:414 JLINK_WriteReg(R2, 0x000000FF)  returns 0x00 (0000ms, 0974ms total)
T08D8 001:414 JLINK_WriteReg(R3, 0x00000000)  returns 0x00 (0000ms, 0974ms total)
T08D8 001:414 JLINK_WriteReg(R4, 0x00000000)  returns 0x00 (0000ms, 0974ms total)
T08D8 001:414 JLINK_WriteReg(R5, 0x00000000)  returns 0x00 (0000ms, 0974ms total)
T08D8 001:414 JLINK_WriteReg(R6, 0x00000000)  returns 0x00 (0000ms, 0974ms total)
T08D8 001:414 JLINK_WriteReg(R7, 0x00000000)  returns 0x00 (0000ms, 0974ms total)
T08D8 001:414 JLINK_WriteReg(R8, 0x00000000)  returns 0x00 (0000ms, 0974ms total)
T08D8 001:414 JLINK_WriteReg(R9, 0x1FFFF618)  returns 0x00 (0000ms, 0974ms total)
T08D8 001:414 JLINK_WriteReg(R10, 0x00000000)  returns 0x00 (0000ms, 0974ms total)
T08D8 001:414 JLINK_WriteReg(R11, 0x00000000)  returns 0x00 (0000ms, 0974ms total)
T08D8 001:414 JLINK_WriteReg(R12, 0x00000000)  returns 0x00 (0000ms, 0974ms total)
T08D8 001:414 JLINK_WriteReg(R13 (SP), 0x20003000)  returns 0x00 (0000ms, 0974ms total)
T08D8 001:414 JLINK_WriteReg(R14, 0x1FFFF001)  returns 0x00 (0000ms, 0974ms total)
T08D8 001:414 JLINK_WriteReg(R15 (PC), 0x1FFFF068)  returns 0x00 (0000ms, 0974ms total)
T08D8 001:414 JLINK_WriteReg(XPSR, 0x01000000)  returns 0x00 (0000ms, 0974ms total)
T08D8 001:414 JLINK_WriteReg(MSP, 0x20003000)  returns 0x00 (0000ms, 0974ms total)
T08D8 001:414 JLINK_WriteReg(PSP, 0x20003000)  returns 0x00 (0000ms, 0974ms total)
T08D8 001:414 JLINK_WriteReg(CFBP, 0x00000000)  returns 0x00 (0000ms, 0974ms total)
T08D8 001:414 JLINK_SetBPEx(Addr = 0x1FFFF000, Type = 0xFFFFFFF2)  returns 0x0000000A (0000ms, 0974ms total)
T08D8 001:414 JLINK_Go() -- CPU_WriteMem(4 bytes @ 0xE0002000) (0006ms, 0980ms total)
T08D8 001:420 JLINK_IsHalted()  returns TRUE (0004ms, 0984ms total)
T08D8 001:424 JLINK_ReadReg(R15 (PC))  returns 0x1FFFF000 (0000ms, 0980ms total)
T08D8 001:424 JLINK_ClrBPEx(BPHandle = 0x0000000A)  returns 0x00 (0000ms, 0980ms total)
T08D8 001:424 JLINK_ReadReg(R0)  returns 0x00000001 (0000ms, 0980ms total)
T08D8 001:424 JLINK_WriteReg(R0, 0x00001000)  returns 0x00 (0000ms, 0980ms total)
T08D8 001:424 JLINK_WriteReg(R1, 0x00000400)  returns 0x00 (0000ms, 0980ms total)
T08D8 001:424 JLINK_WriteReg(R2, 0x000000FF)  returns 0x00 (0000ms, 0980ms total)
T08D8 001:424 JLINK_WriteReg(R3, 0x00000000)  returns 0x00 (0000ms, 0980ms total)
T08D8 001:424 JLINK_WriteReg(R4, 0x00000000)  returns 0x00 (0000ms, 0980ms total)
T08D8 001:424 JLINK_WriteReg(R5, 0x00000000)  returns 0x00 (0000ms, 0980ms total)
T08D8 001:424 JLINK_WriteReg(R6, 0x00000000)  returns 0x00 (0000ms, 0980ms total)
T08D8 001:425 JLINK_WriteReg(R7, 0x00000000)  returns 0x00 (0000ms, 0980ms total)
T08D8 001:425 JLINK_WriteReg(R8, 0x00000000)  returns 0x00 (0000ms, 0980ms total)
T08D8 001:425 JLINK_WriteReg(R9, 0x1FFFF618)  returns 0x00 (0000ms, 0980ms total)
T08D8 001:425 JLINK_WriteReg(R10, 0x00000000)  returns 0x00 (0000ms, 0980ms total)
T08D8 001:425 JLINK_WriteReg(R11, 0x00000000)  returns 0x00 (0000ms, 0980ms total)
T08D8 001:425 JLINK_WriteReg(R12, 0x00000000)  returns 0x00 (0000ms, 0980ms total)
T08D8 001:425 JLINK_WriteReg(R13 (SP), 0x20003000)  returns 0x00 (0000ms, 0980ms total)
T08D8 001:425 JLINK_WriteReg(R14, 0x1FFFF001)  returns 0x00 (0000ms, 0980ms total)
T08D8 001:425 JLINK_WriteReg(R15 (PC), 0x1FFFF0BC)  returns 0x00 (0000ms, 0980ms total)
T08D8 001:425 JLINK_WriteReg(XPSR, 0x01000000)  returns 0x00 (0000ms, 0980ms total)
T08D8 001:425 JLINK_WriteReg(MSP, 0x20003000)  returns 0x00 (0000ms, 0980ms total)
T08D8 001:425 JLINK_WriteReg(PSP, 0x20003000)  returns 0x00 (0000ms, 0980ms total)
T08D8 001:425 JLINK_WriteReg(CFBP, 0x00000000)  returns 0x00 (0000ms, 0980ms total)
T08D8 001:425 JLINK_SetBPEx(Addr = 0x1FFFF000, Type = 0xFFFFFFF2)  returns 0x0000000B (0000ms, 0980ms total)
T08D8 001:425 JLINK_Go() -- CPU_WriteMem(4 bytes @ 0xE0002000) (0005ms, 0985ms total)
T08D8 001:430 JLINK_IsHalted()  returns FALSE (0001ms, 0986ms total)
T08D8 001:454 JLINK_IsHalted()  returns TRUE (0004ms, 0989ms total)
T08D8 001:458 JLINK_ReadReg(R15 (PC))  returns 0x1FFFF000 (0000ms, 0985ms total)
T08D8 001:458 JLINK_ClrBPEx(BPHandle = 0x0000000B)  returns 0x00 (0000ms, 0985ms total)
T08D8 001:458 JLINK_ReadReg(R0)  returns 0x00000000 (0000ms, 0985ms total)
T08D8 001:459 JLINK_WriteReg(R0, 0x00001400)  returns 0x00 (0000ms, 0985ms total)
T08D8 001:459 JLINK_WriteReg(R1, 0x00000400)  returns 0x00 (0000ms, 0985ms total)
T08D8 001:459 JLINK_WriteReg(R2, 0x000000FF)  returns 0x00 (0000ms, 0985ms total)
T08D8 001:459 JLINK_WriteReg(R3, 0x00000000)  returns 0x00 (0000ms, 0985ms total)
T08D8 001:459 JLINK_WriteReg(R4, 0x00000000)  returns 0x00 (0000ms, 0985ms total)
T08D8 001:459 JLINK_WriteReg(R5, 0x00000000)  returns 0x00 (0000ms, 0985ms total)
T08D8 001:459 JLINK_WriteReg(R6, 0x00000000)  returns 0x00 (0000ms, 0985ms total)
T08D8 001:459 JLINK_WriteReg(R7, 0x00000000)  returns 0x00 (0000ms, 0985ms total)
T08D8 001:459 JLINK_WriteReg(R8, 0x00000000)  returns 0x00 (0000ms, 0985ms total)
T08D8 001:459 JLINK_WriteReg(R9, 0x1FFFF618)  returns 0x00 (0000ms, 0985ms total)
T08D8 001:459 JLINK_WriteReg(R10, 0x00000000)  returns 0x00 (0000ms, 0985ms total)
T08D8 001:459 JLINK_WriteReg(R11, 0x00000000)  returns 0x00 (0000ms, 0985ms total)
T08D8 001:459 JLINK_WriteReg(R12, 0x00000000)  returns 0x00 (0000ms, 0985ms total)
T08D8 001:459 JLINK_WriteReg(R13 (SP), 0x20003000)  returns 0x00 (0000ms, 0985ms total)
T08D8 001:459 JLINK_WriteReg(R14, 0x1FFFF001)  returns 0x00 (0000ms, 0985ms total)
T08D8 001:459 JLINK_WriteReg(R15 (PC), 0x1FFFF068)  returns 0x00 (0000ms, 0985ms total)
T08D8 001:459 JLINK_WriteReg(XPSR, 0x01000000)  returns 0x00 (0000ms, 0985ms total)
T08D8 001:459 JLINK_WriteReg(MSP, 0x20003000)  returns 0x00 (0000ms, 0985ms total)
T08D8 001:459 JLINK_WriteReg(PSP, 0x20003000)  returns 0x00 (0000ms, 0985ms total)
T08D8 001:459 JLINK_WriteReg(CFBP, 0x00000000)  returns 0x00 (0000ms, 0985ms total)
T08D8 001:459 JLINK_SetBPEx(Addr = 0x1FFFF000, Type = 0xFFFFFFF2)  returns 0x0000000C (0000ms, 0985ms total)
T08D8 001:459 JLINK_Go() -- CPU_WriteMem(4 bytes @ 0xE0002000) (0005ms, 0990ms total)
T08D8 001:464 JLINK_IsHalted()  returns TRUE (0004ms, 0994ms total)
T08D8 001:468 JLINK_ReadReg(R15 (PC))  returns 0x1FFFF000 (0000ms, 0990ms total)
T08D8 001:468 JLINK_ClrBPEx(BPHandle = 0x0000000C)  returns 0x00 (0000ms, 0990ms total)
T08D8 001:468 JLINK_ReadReg(R0)  returns 0x00000001 (0001ms, 0991ms total)
T08D8 001:469 JLINK_WriteReg(R0, 0x00001400)  returns 0x00 (0000ms, 0991ms total)
T08D8 001:469 JLINK_WriteReg(R1, 0x00000400)  returns 0x00 (0000ms, 0991ms total)
T08D8 001:469 JLINK_WriteReg(R2, 0x000000FF)  returns 0x00 (0000ms, 0991ms total)
T08D8 001:469 JLINK_WriteReg(R3, 0x00000000)  returns 0x00 (0000ms, 0991ms total)
T08D8 001:469 JLINK_WriteReg(R4, 0x00000000)  returns 0x00 (0000ms, 0991ms total)
T08D8 001:469 JLINK_WriteReg(R5, 0x00000000)  returns 0x00 (0000ms, 0991ms total)
T08D8 001:469 JLINK_WriteReg(R6, 0x00000000)  returns 0x00 (0000ms, 0991ms total)
T08D8 001:469 JLINK_WriteReg(R7, 0x00000000)  returns 0x00 (0000ms, 0991ms total)
T08D8 001:469 JLINK_WriteReg(R8, 0x00000000)  returns 0x00 (0000ms, 0991ms total)
T08D8 001:469 JLINK_WriteReg(R9, 0x1FFFF618)  returns 0x00 (0000ms, 0991ms total)
T08D8 001:469 JLINK_WriteReg(R10, 0x00000000)  returns 0x00 (0000ms, 0991ms total)
T08D8 001:469 JLINK_WriteReg(R11, 0x00000000)  returns 0x00 (0000ms, 0991ms total)
T08D8 001:469 JLINK_WriteReg(R12, 0x00000000)  returns 0x00 (0000ms, 0991ms total)
T08D8 001:469 JLINK_WriteReg(R13 (SP), 0x20003000)  returns 0x00 (0000ms, 0991ms total)
T08D8 001:469 JLINK_WriteReg(R14, 0x1FFFF001)  returns 0x00 (0000ms, 0991ms total)
T08D8 001:469 JLINK_WriteReg(R15 (PC), 0x1FFFF0BC)  returns 0x00 (0000ms, 0991ms total)
T08D8 001:469 JLINK_WriteReg(XPSR, 0x01000000)  returns 0x00 (0000ms, 0991ms total)
T08D8 001:469 JLINK_WriteReg(MSP, 0x20003000)  returns 0x00 (0000ms, 0991ms total)
T08D8 001:469 JLINK_WriteReg(PSP, 0x20003000)  returns 0x00 (0000ms, 0991ms total)
T08D8 001:469 JLINK_WriteReg(CFBP, 0x00000000)  returns 0x00 (0000ms, 0991ms total)
T08D8 001:469 JLINK_SetBPEx(Addr = 0x1FFFF000, Type = 0xFFFFFFF2)  returns 0x0000000D (0000ms, 0991ms total)
T08D8 001:469 JLINK_Go() -- CPU_WriteMem(4 bytes @ 0xE0002000) (0005ms, 0996ms total)
T08D8 001:474 JLINK_IsHalted()  returns FALSE (0001ms, 0997ms total)
T08D8 001:476 JLINK_IsHalted()  returns FALSE (0002ms, 0998ms total)
T08D8 001:480 JLINK_IsHalted()  returns FALSE (0001ms, 0997ms total)
T08D8 001:482 JLINK_IsHalted()  returns TRUE (0004ms, 1000ms total)
T08D8 001:486 JLINK_ReadReg(R15 (PC))  returns 0x1FFFF000 (0000ms, 0996ms total)
T08D8 001:486 JLINK_ClrBPEx(BPHandle = 0x0000000D)  returns 0x00 (0000ms, 0996ms total)
T08D8 001:486 JLINK_ReadReg(R0)  returns 0x00000000 (0000ms, 0996ms total)
T08D8 001:487 JLINK_WriteReg(R0, 0x00001800)  returns 0x00 (0000ms, 0996ms total)
T08D8 001:487 JLINK_WriteReg(R1, 0x00000400)  returns 0x00 (0000ms, 0996ms total)
T08D8 001:487 JLINK_WriteReg(R2, 0x000000FF)  returns 0x00 (0000ms, 0996ms total)
T08D8 001:487 JLINK_WriteReg(R3, 0x00000000)  returns 0x00 (0000ms, 0996ms total)
T08D8 001:487 JLINK_WriteReg(R4, 0x00000000)  returns 0x00 (0000ms, 0996ms total)
T08D8 001:487 JLINK_WriteReg(R5, 0x00000000)  returns 0x00 (0000ms, 0996ms total)
T08D8 001:487 JLINK_WriteReg(R6, 0x00000000)  returns 0x00 (0000ms, 0996ms total)
T08D8 001:487 JLINK_WriteReg(R7, 0x00000000)  returns 0x00 (0000ms, 0996ms total)
T08D8 001:487 JLINK_WriteReg(R8, 0x00000000)  returns 0x00 (0000ms, 0996ms total)
T08D8 001:487 JLINK_WriteReg(R9, 0x1FFFF618)  returns 0x00 (0000ms, 0996ms total)
T08D8 001:487 JLINK_WriteReg(R10, 0x00000000)  returns 0x00 (0000ms, 0996ms total)
T08D8 001:487 JLINK_WriteReg(R11, 0x00000000)  returns 0x00 (0000ms, 0996ms total)
T08D8 001:487 JLINK_WriteReg(R12, 0x00000000)  returns 0x00 (0000ms, 0996ms total)
T08D8 001:487 JLINK_WriteReg(R13 (SP), 0x20003000)  returns 0x00 (0000ms, 0996ms total)
T08D8 001:487 JLINK_WriteReg(R14, 0x1FFFF001)  returns 0x00 (0000ms, 0996ms total)
T08D8 001:487 JLINK_WriteReg(R15 (PC), 0x1FFFF068)  returns 0x00 (0000ms, 0996ms total)
T08D8 001:487 JLINK_WriteReg(XPSR, 0x01000000)  returns 0x00 (0000ms, 0996ms total)
T08D8 001:487 JLINK_WriteReg(MSP, 0x20003000)  returns 0x00 (0000ms, 0996ms total)
T08D8 001:487 JLINK_WriteReg(PSP, 0x20003000)  returns 0x00 (0000ms, 0996ms total)
T08D8 001:487 JLINK_WriteReg(CFBP, 0x00000000)  returns 0x00 (0000ms, 0996ms total)
T08D8 001:487 JLINK_SetBPEx(Addr = 0x1FFFF000, Type = 0xFFFFFFF2)  returns 0x0000000E (0000ms, 0996ms total)
T08D8 001:487 JLINK_Go() -- CPU_WriteMem(4 bytes @ 0xE0002000) (0005ms, 1001ms total)
T08D8 001:492 JLINK_IsHalted()  returns TRUE (0005ms, 1006ms total)
T08D8 001:497 JLINK_ReadReg(R15 (PC))  returns 0x1FFFF000 (0000ms, 1001ms total)
T08D8 001:497 JLINK_ClrBPEx(BPHandle = 0x0000000E)  returns 0x00 (0000ms, 1001ms total)
T08D8 001:497 JLINK_ReadReg(R0)  returns 0x00000001 (0000ms, 1001ms total)
T08D8 001:497 JLINK_WriteReg(R0, 0x00001800)  returns 0x00 (0000ms, 1001ms total)
T08D8 001:497 JLINK_WriteReg(R1, 0x00000400)  returns 0x00 (0000ms, 1001ms total)
T08D8 001:497 JLINK_WriteReg(R2, 0x000000FF)  returns 0x00 (0000ms, 1001ms total)
T08D8 001:497 JLINK_WriteReg(R3, 0x00000000)  returns 0x00 (0000ms, 1001ms total)
T08D8 001:497 JLINK_WriteReg(R4, 0x00000000)  returns 0x00 (0000ms, 1001ms total)
T08D8 001:497 JLINK_WriteReg(R5, 0x00000000)  returns 0x00 (0000ms, 1001ms total)
T08D8 001:497 JLINK_WriteReg(R6, 0x00000000)  returns 0x00 (0000ms, 1001ms total)
T08D8 001:497 JLINK_WriteReg(R7, 0x00000000)  returns 0x00 (0000ms, 1001ms total)
T08D8 001:497 JLINK_WriteReg(R8, 0x00000000)  returns 0x00 (0000ms, 1001ms total)
T08D8 001:497 JLINK_WriteReg(R9, 0x1FFFF618)  returns 0x00 (0000ms, 1001ms total)
T08D8 001:497 JLINK_WriteReg(R10, 0x00000000)  returns 0x00 (0000ms, 1001ms total)
T08D8 001:497 JLINK_WriteReg(R11, 0x00000000)  returns 0x00 (0000ms, 1001ms total)
T08D8 001:497 JLINK_WriteReg(R12, 0x00000000)  returns 0x00 (0000ms, 1001ms total)
T08D8 001:497 JLINK_WriteReg(R13 (SP), 0x20003000)  returns 0x00 (0000ms, 1001ms total)
T08D8 001:497 JLINK_WriteReg(R14, 0x1FFFF001)  returns 0x00 (0000ms, 1001ms total)
T08D8 001:497 JLINK_WriteReg(R15 (PC), 0x1FFFF0BC)  returns 0x00 (0000ms, 1001ms total)
T08D8 001:497 JLINK_WriteReg(XPSR, 0x01000000)  returns 0x00 (0000ms, 1001ms total)
T08D8 001:497 JLINK_WriteReg(MSP, 0x20003000)  returns 0x00 (0000ms, 1001ms total)
T08D8 001:497 JLINK_WriteReg(PSP, 0x20003000)  returns 0x00 (0000ms, 1001ms total)
T08D8 001:497 JLINK_WriteReg(CFBP, 0x00000000)  returns 0x00 (0000ms, 1001ms total)
T08D8 001:497 JLINK_SetBPEx(Addr = 0x1FFFF000, Type = 0xFFFFFFF2)  returns 0x0000000F (0000ms, 1001ms total)
T08D8 001:497 JLINK_Go() -- CPU_WriteMem(4 bytes @ 0xE0002000) (0005ms, 1006ms total)
T08D8 001:502 JLINK_IsHalted()  returns FALSE (0002ms, 1008ms total)
T08D8 001:505 JLINK_IsHalted()  returns FALSE (0001ms, 1007ms total)
T08D8 001:507 JLINK_IsHalted()  returns FALSE (0001ms, 1007ms total)
T08D8 001:509 JLINK_IsHalted()  returns TRUE (0004ms, 1010ms total)
T08D8 001:513 JLINK_ReadReg(R15 (PC))  returns 0x1FFFF000 (0000ms, 1006ms total)
T08D8 001:513 JLINK_ClrBPEx(BPHandle = 0x0000000F)  returns 0x00 (0000ms, 1006ms total)
T08D8 001:513 JLINK_ReadReg(R0)  returns 0x00000000 (0000ms, 1006ms total)
T08D8 001:513 JLINK_WriteReg(R0, 0x00001C00)  returns 0x00 (0001ms, 1007ms total)
T08D8 001:514 JLINK_WriteReg(R1, 0x00000400)  returns 0x00 (0000ms, 1007ms total)
T08D8 001:514 JLINK_WriteReg(R2, 0x000000FF)  returns 0x00 (0000ms, 1007ms total)
T08D8 001:514 JLINK_WriteReg(R3, 0x00000000)  returns 0x00 (0000ms, 1007ms total)
T08D8 001:514 JLINK_WriteReg(R4, 0x00000000)  returns 0x00 (0000ms, 1007ms total)
T08D8 001:514 JLINK_WriteReg(R5, 0x00000000)  returns 0x00 (0000ms, 1007ms total)
T08D8 001:514 JLINK_WriteReg(R6, 0x00000000)  returns 0x00 (0000ms, 1007ms total)
T08D8 001:514 JLINK_WriteReg(R7, 0x00000000)  returns 0x00 (0000ms, 1007ms total)
T08D8 001:514 JLINK_WriteReg(R8, 0x00000000)  returns 0x00 (0000ms, 1007ms total)
T08D8 001:514 JLINK_WriteReg(R9, 0x1FFFF618)  returns 0x00 (0000ms, 1007ms total)
T08D8 001:514 JLINK_WriteReg(R10, 0x00000000)  returns 0x00 (0000ms, 1007ms total)
T08D8 001:514 JLINK_WriteReg(R11, 0x00000000)  returns 0x00 (0000ms, 1007ms total)
T08D8 001:514 JLINK_WriteReg(R12, 0x00000000)  returns 0x00 (0000ms, 1007ms total)
T08D8 001:514 JLINK_WriteReg(R13 (SP), 0x20003000)  returns 0x00 (0000ms, 1007ms total)
T08D8 001:514 JLINK_WriteReg(R14, 0x1FFFF001)  returns 0x00 (0000ms, 1007ms total)
T08D8 001:514 JLINK_WriteReg(R15 (PC), 0x1FFFF068)  returns 0x00 (0000ms, 1007ms total)
T08D8 001:514 JLINK_WriteReg(XPSR, 0x01000000)  returns 0x00 (0000ms, 1007ms total)
T08D8 001:514 JLINK_WriteReg(MSP, 0x20003000)  returns 0x00 (0000ms, 1007ms total)
T08D8 001:514 JLINK_WriteReg(PSP, 0x20003000)  returns 0x00 (0000ms, 1007ms total)
T08D8 001:514 JLINK_WriteReg(CFBP, 0x00000000)  returns 0x00 (0000ms, 1007ms total)
T08D8 001:514 JLINK_SetBPEx(Addr = 0x1FFFF000, Type = 0xFFFFFFF2)  returns 0x00000010 (0000ms, 1007ms total)
T08D8 001:514 JLINK_Go() -- CPU_WriteMem(4 bytes @ 0xE0002000) (0005ms, 1012ms total)
T08D8 001:519 JLINK_IsHalted()  returns TRUE (0004ms, 1016ms total)
T08D8 001:523 JLINK_ReadReg(R15 (PC))  returns 0x1FFFF000 (0000ms, 1012ms total)
T08D8 001:523 JLINK_ClrBPEx(BPHandle = 0x00000010)  returns 0x00 (0000ms, 1012ms total)
T08D8 001:523 JLINK_ReadReg(R0)  returns 0x00000001 (0001ms, 1013ms total)
T08D8 001:524 JLINK_WriteReg(R0, 0x00001C00)  returns 0x00 (0000ms, 1013ms total)
T08D8 001:524 JLINK_WriteReg(R1, 0x00000400)  returns 0x00 (0000ms, 1013ms total)
T08D8 001:524 JLINK_WriteReg(R2, 0x000000FF)  returns 0x00 (0000ms, 1013ms total)
T08D8 001:524 JLINK_WriteReg(R3, 0x00000000)  returns 0x00 (0000ms, 1013ms total)
T08D8 001:524 JLINK_WriteReg(R4, 0x00000000)  returns 0x00 (0000ms, 1013ms total)
T08D8 001:524 JLINK_WriteReg(R5, 0x00000000)  returns 0x00 (0000ms, 1013ms total)
T08D8 001:524 JLINK_WriteReg(R6, 0x00000000)  returns 0x00 (0000ms, 1013ms total)
T08D8 001:524 JLINK_WriteReg(R7, 0x00000000)  returns 0x00 (0000ms, 1013ms total)
T08D8 001:524 JLINK_WriteReg(R8, 0x00000000)  returns 0x00 (0000ms, 1013ms total)
T08D8 001:524 JLINK_WriteReg(R9, 0x1FFFF618)  returns 0x00 (0000ms, 1013ms total)
T08D8 001:524 JLINK_WriteReg(R10, 0x00000000)  returns 0x00 (0000ms, 1013ms total)
T08D8 001:524 JLINK_WriteReg(R11, 0x00000000)  returns 0x00 (0000ms, 1013ms total)
T08D8 001:524 JLINK_WriteReg(R12, 0x00000000)  returns 0x00 (0000ms, 1013ms total)
T08D8 001:524 JLINK_WriteReg(R13 (SP), 0x20003000)  returns 0x00 (0000ms, 1013ms total)
T08D8 001:524 JLINK_WriteReg(R14, 0x1FFFF001)  returns 0x00 (0000ms, 1013ms total)
T08D8 001:524 JLINK_WriteReg(R15 (PC), 0x1FFFF0BC)  returns 0x00 (0000ms, 1013ms total)
T08D8 001:524 JLINK_WriteReg(XPSR, 0x01000000)  returns 0x00 (0000ms, 1013ms total)
T08D8 001:524 JLINK_WriteReg(MSP, 0x20003000)  returns 0x00 (0000ms, 1013ms total)
T08D8 001:524 JLINK_WriteReg(PSP, 0x20003000)  returns 0x00 (0000ms, 1013ms total)
T08D8 001:524 JLINK_WriteReg(CFBP, 0x00000000)  returns 0x00 (0000ms, 1013ms total)
T08D8 001:524 JLINK_SetBPEx(Addr = 0x1FFFF000, Type = 0xFFFFFFF2)  returns 0x00000011 (0000ms, 1013ms total)
T08D8 001:524 JLINK_Go() -- CPU_WriteMem(4 bytes @ 0xE0002000) (0005ms, 1018ms total)
T08D8 001:529 JLINK_IsHalted()  returns FALSE (0002ms, 1020ms total)
T08D8 001:533 JLINK_IsHalted()  returns FALSE (0001ms, 1019ms total)
T08D8 001:535 JLINK_IsHalted()  returns FALSE (0001ms, 1019ms total)
T08D8 001:537 JLINK_IsHalted()  returns TRUE (0004ms, 1022ms total)
T08D8 001:541 JLINK_ReadReg(R15 (PC))  returns 0x1FFFF000 (0000ms, 1018ms total)
T08D8 001:541 JLINK_ClrBPEx(BPHandle = 0x00000011)  returns 0x00 (0000ms, 1018ms total)
T08D8 001:541 JLINK_ReadReg(R0)  returns 0x00000000 (0000ms, 1018ms total)
T08D8 001:543 JLINK_WriteReg(R0, 0x00002000)  returns 0x00 (0000ms, 1018ms total)
T08D8 001:543 JLINK_WriteReg(R1, 0x00000400)  returns 0x00 (0000ms, 1018ms total)
T08D8 001:543 JLINK_WriteReg(R2, 0x000000FF)  returns 0x00 (0000ms, 1018ms total)
T08D8 001:543 JLINK_WriteReg(R3, 0x00000000)  returns 0x00 (0000ms, 1018ms total)
T08D8 001:543 JLINK_WriteReg(R4, 0x00000000)  returns 0x00 (0000ms, 1018ms total)
T08D8 001:543 JLINK_WriteReg(R5, 0x00000000)  returns 0x00 (0000ms, 1018ms total)
T08D8 001:543 JLINK_WriteReg(R6, 0x00000000)  returns 0x00 (0001ms, 1019ms total)
T08D8 001:544 JLINK_WriteReg(R7, 0x00000000)  returns 0x00 (0000ms, 1019ms total)
T08D8 001:544 JLINK_WriteReg(R8, 0x00000000)  returns 0x00 (0000ms, 1019ms total)
T08D8 001:544 JLINK_WriteReg(R9, 0x1FFFF618)  returns 0x00 (0000ms, 1019ms total)
T08D8 001:544 JLINK_WriteReg(R10, 0x00000000)  returns 0x00 (0000ms, 1019ms total)
T08D8 001:544 JLINK_WriteReg(R11, 0x00000000)  returns 0x00 (0000ms, 1019ms total)
T08D8 001:544 JLINK_WriteReg(R12, 0x00000000)  returns 0x00 (0000ms, 1019ms total)
T08D8 001:544 JLINK_WriteReg(R13 (SP), 0x20003000)  returns 0x00 (0000ms, 1019ms total)
T08D8 001:544 JLINK_WriteReg(R14, 0x1FFFF001)  returns 0x00 (0000ms, 1019ms total)
T08D8 001:544 JLINK_WriteReg(R15 (PC), 0x1FFFF068)  returns 0x00 (0000ms, 1019ms total)
T08D8 001:544 JLINK_WriteReg(XPSR, 0x01000000)  returns 0x00 (0000ms, 1019ms total)
T08D8 001:544 JLINK_WriteReg(MSP, 0x20003000)  returns 0x00 (0000ms, 1019ms total)
T08D8 001:544 JLINK_WriteReg(PSP, 0x20003000)  returns 0x00 (0000ms, 1019ms total)
T08D8 001:544 JLINK_WriteReg(CFBP, 0x00000000)  returns 0x00 (0000ms, 1019ms total)
T08D8 001:544 JLINK_SetBPEx(Addr = 0x1FFFF000, Type = 0xFFFFFFF2)  returns 0x00000012 (0000ms, 1019ms total)
T08D8 001:544 JLINK_Go() -- CPU_WriteMem(4 bytes @ 0xE0002000) (0005ms, 1024ms total)
T08D8 001:549 JLINK_IsHalted()  returns TRUE (0004ms, 1028ms total)
T08D8 001:553 JLINK_ReadReg(R15 (PC))  returns 0x1FFFF000 (0000ms, 1024ms total)
T08D8 001:553 JLINK_ClrBPEx(BPHandle = 0x00000012)  returns 0x00 (0000ms, 1024ms total)
T08D8 001:553 JLINK_ReadReg(R0)  returns 0x00000001 (0000ms, 1024ms total)
T08D8 001:553 JLINK_WriteReg(R0, 0x00002000)  returns 0x00 (0000ms, 1024ms total)
T08D8 001:553 JLINK_WriteReg(R1, 0x00000400)  returns 0x00 (0000ms, 1024ms total)
T08D8 001:553 JLINK_WriteReg(R2, 0x000000FF)  returns 0x00 (0000ms, 1024ms total)
T08D8 001:553 JLINK_WriteReg(R3, 0x00000000)  returns 0x00 (0000ms, 1024ms total)
T08D8 001:553 JLINK_WriteReg(R4, 0x00000000)  returns 0x00 (0001ms, 1025ms total)
T08D8 001:554 JLINK_WriteReg(R5, 0x00000000)  returns 0x00 (0000ms, 1025ms total)
T08D8 001:554 JLINK_WriteReg(R6, 0x00000000)  returns 0x00 (0000ms, 1025ms total)
T08D8 001:554 JLINK_WriteReg(R7, 0x00000000)  returns 0x00 (0000ms, 1025ms total)
T08D8 001:554 JLINK_WriteReg(R8, 0x00000000)  returns 0x00 (0000ms, 1025ms total)
T08D8 001:554 JLINK_WriteReg(R9, 0x1FFFF618)  returns 0x00 (0000ms, 1025ms total)
T08D8 001:554 JLINK_WriteReg(R10, 0x00000000)  returns 0x00 (0000ms, 1025ms total)
T08D8 001:554 JLINK_WriteReg(R11, 0x00000000)  returns 0x00 (0000ms, 1025ms total)
T08D8 001:554 JLINK_WriteReg(R12, 0x00000000)  returns 0x00 (0000ms, 1025ms total)
T08D8 001:554 JLINK_WriteReg(R13 (SP), 0x20003000)  returns 0x00 (0000ms, 1025ms total)
T08D8 001:554 JLINK_WriteReg(R14, 0x1FFFF001)  returns 0x00 (0000ms, 1025ms total)
T08D8 001:554 JLINK_WriteReg(R15 (PC), 0x1FFFF0BC)  returns 0x00 (0000ms, 1025ms total)
T08D8 001:554 JLINK_WriteReg(XPSR, 0x01000000)  returns 0x00 (0000ms, 1025ms total)
T08D8 001:554 JLINK_WriteReg(MSP, 0x20003000)  returns 0x00 (0000ms, 1025ms total)
T08D8 001:554 JLINK_WriteReg(PSP, 0x20003000)  returns 0x00 (0000ms, 1025ms total)
T08D8 001:554 JLINK_WriteReg(CFBP, 0x00000000)  returns 0x00 (0000ms, 1025ms total)
